T1538 10590:564 SEGGER J-Link V6.48a Log File (0000ms, 1743942ms total)
T1538 10590:564 DLL Compiled: Jul 30 2019 15:16:09 (0000ms, 1743942ms total)
T1538 10590:564 Logging started @ 2021-04-21 21:09 (0000ms, 1743942ms total)
T1538 10590:564 JLINK_ExecCommand("device = ATSAMD21E15B", ...). Device "ATSAMD21E15" selected.  returns 0x00 (0001ms, 1743943ms total)
T1538 10590:565 JLINK_GetHWStatus(...)  returns 0x00 (0000ms, 1743943ms total)
T1538 10590:565 JLINK_ClrRESET() (0000ms, 1743943ms total)
T1538 10590:572 JLINK_SetRESET() (0000ms, 1743943ms total)
T1538 10590:581 JLINK_ClrRESET() (0000ms, 1743943ms total)
T1538 10590:587 JLINK_ClrTCK()  returns 0x00 (0000ms, 1743943ms total)
T1538 10590:596 JLINK_SetRESET() (0001ms, 1743944ms total)
T1538 10590:603 JLINK_Clock()  returns 0x01 (0000ms, 1743944ms total)
T1538 10590:609 JLINK_TIF_Select(JLINKARM_TIF_SWD)  returns 0x00 (0001ms, 1743945ms total)
T1538 10590:610 JLINK_SetSpeed(50) (0000ms, 1743945ms total)
T1538 10590:610 JLINK_CORESIGHT_Configure()  returns 0 (0009ms, 1743954ms total)
T1538 10590:619 JLINK_CORESIGHT_WriteAPDPReg(DP reg 0x02, 0x00000000)  returns 0 (0001ms, 1743955ms total)
T1538 10590:620 JLINK_CORESIGHT_WriteAPDPReg(AP reg 0x00, 0x23000040)  returns 0 (0002ms, 1743957ms total)
T1538 10590:622 JLINK_CORESIGHT_WriteAPDPReg(AP reg 0x01, 0x41002101)  returns 0 (0001ms, 1743958ms total)
T1538 10590:623 JLINK_CORESIGHT_ReadAPDPReg(AP reg 0x03) -- Value=0x10120200  returns 0 (0003ms, 1743961ms total)
T1538 10590:626 JLINK_CORESIGHT_WriteAPDPReg(AP reg 0x01, 0x41002100)  returns 0 (0001ms, 1743962ms total)
T1538 10590:627 JLINK_CORESIGHT_WriteAPDPReg(AP reg 0x03, 0x00000010)  returns 0 (0002ms, 1743964ms total)
T1538 10590:629 JLINK_CORESIGHT_WriteAPDPReg(AP reg 0x01, 0x41002101)  returns 0 (0001ms, 1743965ms total)
T1538 10590:630 JLINK_CORESIGHT_ReadAPDPReg(AP reg 0x03) -- Value=0x11120200  returns 0 (0003ms, 1743968ms total)
T1538 10590:834 JLINK_CORESIGHT_ReadAPDPReg(AP reg 0x03) -- Value=0x10120300  returns 0 (0001ms, 1743969ms total)
T1538 10590:850 JLINK_ExecCommand("Device = ATSAMD21E15B", ...). Device "ATSAMD21E15" selected.  returns 0x00 (0001ms, 1743970ms total)
T1538 10590:851 JLINK_TIF_Select(JLINKARM_TIF_SWD)  returns 0x00 (0001ms, 1743971ms total)
T1538 10590:852 JLINK_SetSpeed(4000) (0000ms, 1743971ms total)
T1538 10590:852 JLINK_ResetPullsRESET(OFF) (0000ms, 1743971ms total)
T1538 10590:852 JLINK_Connect()InitTarget() >0x10B TIF>Found SW-DP with ID 0x0BC11477 >0x0D TIF> >0x28 TIF> >0x0D TIF> >0x28 TIF> >0x0D TIF> >0x28 TIF> >0x0D TIF> >0x28 TIF> >0x0D TIF> >0x21 TIF> >0x0D TIF> >0x28 TIF>Scanning AP map to find all available APs >0x0D TIF> >0x28 TIF> >0x0D TIF> >0x21 TIF> >0x0D TIF> >0x21 TIF> >0x0D TIF> >0x28 TIF> >0x0D TIF> >0x21 TIF> >0x0D TIF> >0x21 TIF>AP[1]: Stopped AP scan as end of AP map has been reachedAP[0]: AHB-AP (IDR: 0x04770031)
Iterating through AP map to find AHB-AP to use >0x42 TIF> >0x28 TIF> >0x0D TIF> >0x28 TIF> >0x0D TIF> >0x21 TIF> >0x0D TIF> >0x21 TIF> >0x42 TIF> >0x28 TIF> >0x0D TIF> >0x28 TIF> >0x0D TIF> >0x28 TIF> >0x0D TIF> >0x21 TIF> >0x0D TIF> >0x21 TIF>AP[0]: Core foundAP[0]: AHB-AP ROM base: 0x41003000 >0x0D TIF> >0x28 TIF> >0x0D TIF> >0x28 TIF> >0x0D TIF> >0x28 TIF> >0x0D TIF> >0x21 TIF> >0x0D TIF> >0x21 TIF>CPUID register: 0x410CC601. Implementer code: 0x41 (ARM)Found Cortex-M0 r0p1, Little endian.
 -- Max. mem block: 0x000013C8 -- CPU_ReadMem(4 bytes @ 0xE000EDF0) -- CPU_ReadMem(4 bytes @ 0xE0002000)FPUnit: 4 code (BP) slots and 0 literal slots -- CPU_ReadMem(4 bytes @ 0xE000EDFC) -- CPU_ReadMem(4 bytes @ 0xE0001000) -- CPU_WriteMem(4 bytes @ 0xE0001000)CoreSight components:ROMTbl[0] @ 41003000 -- CPU_ReadMem(16 bytes @ 0x41003000) -- CPU_ReadMem(16 bytes @ 0xE00FFFF0) -- CPU_ReadMem(16 bytes @ 0xE00FFFE0)ROMTbl[0][0]: E00FF000, CID: B105100D, PID: 000BB4C0 ROM TableROMTbl[1] @ E00FF000
 -- CPU_ReadMem(16 bytes @ 0xE00FF000) -- CPU_ReadMem(16 bytes @ 0xE000EFF0) -- CPU_ReadMem(16 bytes @ 0xE000EFE0)ROMTbl[1][0]: E000E000, CID: B105E00D, PID: 000BB008 SCS -- CPU_ReadMem(16 bytes @ 0xE0001FF0) -- CPU_ReadMem(16 bytes @ 0xE0001FE0)ROMTbl[1][1]: E0001000, CID: B105E00D, PID: 000BB00A DWT -- CPU_ReadMem(16 bytes @ 0xE0002FF0) -- CPU_ReadMem(16 bytes @ 0xE0002FE0)ROMTbl[1][2]: E0002000, CID: B105E00D, PID: 000BB00B FPB -- CPU_ReadMem(16 bytes @ 0x41006FF0)
 -- CPU_ReadMem(16 bytes @ 0x41006FE0)ROMTbl[0][1]: 41006000, CID: B105900D, PID: 001BB932 MTB-M0+  returns 0x00 (0135ms, 1744106ms total)
T1538 10590:987 JLINK_Halt()  returns 0x00 (0004ms, 1744110ms total)
T1538 10590:995 JLINK_JTAG_GetDeviceID(DeviceIndex = 0)  returns 0x00 (0000ms, 1744110ms total)
T1538 10590:995 JLINK_ReadMemU32(0x41002018, 0x0001 Items, ...) -- CPU_ReadMem(4 bytes @ 0x41002018) - Data: 27 15 01 10  returns 1 (0000ms, 1744110ms total)
T167C 10591:004 JLINK_IsHalted()  returns TRUE (0000ms, 1744110ms total)
T167C 10591:004 JLINK_GetMOEs(...) -- CPU_ReadMem(4 bytes @ 0xE000ED30)  returns 0x01 (0001ms, 1744111ms total)
T167C 10591:005 JLINK_ReadReg(R15 (PC))  returns 0xFFFFFFFE (0000ms, 1744111ms total)
T1538 10591:011 JLINK_BeginDownload(Flags = 0x00) (0001ms, 1744112ms total)
T1538 10591:012 JLINK_WriteMem(0x00000000, 0x15AC Bytes, ...) - Data: A8 0B 00 20 19 01 00 00 15 01 00 00 15 01 00 00 ... -- Read from flash cache (5548 bytes @ 0x00000000)  returns 0x15AC (0001ms, 1744113ms total)
T1538 10591:013 JLINK_WriteMem(0x000015AC, 0x0484 Bytes, ...) - Data: 00 00 00 00 FF FF FF FF 01 00 00 00 00 00 00 00 ... -- Read from flash cache (1156 bytes @ 0x000015AC)  returns 0x484 (0000ms, 1744113ms total)
T1538 10591:018 JLINK_EndDownload() -- CPU_ReadMem(4 bytes @ 0x41006004) -- CPU_ReadMem(4 bytes @ 0xE000ED90) -- -------------------------------------- -- Start of determining dirty areas in flash cache -- End of determining dirty areas -- Start of preparing flash programming -- Calculating RAM usage -- RAM usage = 2804 Bytes -- Preserving CPU registers -- Preparing memory -- Preparing target -- Downloading RAMCode -- Checking target RAM -- Preparing RAMCode -- End of preparing flash programming
 -- CPU speed could not be measured. -- Start of comparing flash -- CRC check was estimated as fastest method -- Comparing range 0x0000 - 0x1AFF (27 Sectors, 6 KB), using multi-block CRC calculation -- CRC does not match for sectors 0-26 -- End of comparing flash -- Start of erasing sectors -- End of erasing sectors -- Start of flash programming -- Programming range 0x00000000 - 0x00001AFF ( 27 Sectors, 6 KB) -- End of flash programming -- 0x0000 - 0x1AFF ( 27 Sectors, 6 KB) -- Start of verifying flash
 -- Use CRC or checksum calculation as verify method -- End of verifying flash -- Start of restoring -- Restoring RAMCode -- Restore target -- Restore memory -- Restoring CPU registers -- End of restoring -- Bank 0 @ 0x00000000: 1 range affected (6912 bytes) -- Total time needed: 0.186s (Prepare: 0.040s, Compare: 0.017s, Erase: 0.000s, Program: 0.115s, Verify: 0.006s, Restore: 0.005s)  returns 0x1B00 (0192ms, 1744305ms total)
T1538 10591:210 JLINK_SetResetType(JLINKARM_CM3_RESET_TYPE_NORMAL)  returns JLINKARM_CM3_RESET_TYPE_NORMAL (0000ms, 1744305ms total)
T1538 10591:210 JLINK_Reset() -- CPU_ReadMem(4 bytes @ 0x20000684) -- CPU_WriteMem(4 bytes @ 0x20000684) -- CPU_ReadMem(4 bytes @ 0xE000EDFC) -- CPU_WriteMem(4 bytes @ 0xE000EDFC) -- CPU_WriteMem(4 bytes @ 0xE000ED0C) -- CPU_ReadMem(4 bytes @ 0xE000EDF0) -- CPU_ReadMem(4 bytes @ 0x41002100) -- CPU_WriteMem(4 bytes @ 0xE000EDFC) -- CPU_WriteMem(4 bytes @ 0xE0002000) -- CPU_ReadMem(4 bytes @ 0xE000EDFC) -- CPU_ReadMem(4 bytes @ 0xE0001000) -- CPU_WriteMem(4 bytes @ 0xE0001000) (0012ms, 1744317ms total)
T082C 10591:385 JLINK_Halt()  returns 0x00 (0000ms, 1744317ms total)
T082C 10591:385 JLINK_ReadReg(R15 (PC))  returns 0x00000118 (0000ms, 1744317ms total)
T082C 10591:385 JLINK_ReadReg(R13 (SP))  returns 0x20000BA8 (0000ms, 1744317ms total)
T082C 10591:401 JLINK_ReadMemHW(0x00000118, 0x0004 Bytes, ...) -- CPU_ReadMem(4 bytes @ 0x00000118) - Data: F8 B5 23 4A  returns 0x00 (0000ms, 1744317ms total)
T082C 10591:402 JLINK_ReadReg(R0)  returns 0x00000000 (0001ms, 1744318ms total)
T082C 10591:403 JLINK_ReadReg(R1)  returns 0x00000000 (0000ms, 1744318ms total)
T082C 10591:403 JLINK_ReadReg(R2)  returns 0x00000000 (0000ms, 1744318ms total)
T082C 10591:403 JLINK_ReadReg(R3)  returns 0xECC570B0 (0000ms, 1744318ms total)
T082C 10591:403 JLINK_ReadReg(R4)  returns 0x20000664 (0000ms, 1744318ms total)
T082C 10591:403 JLINK_ReadReg(R5)  returns 0x200006BC (0001ms, 1744319ms total)
T082C 10591:404 JLINK_ReadReg(R6)  returns 0x200006BC (0000ms, 1744319ms total)
T082C 10591:404 JLINK_ReadReg(R7)  returns 0x0000000C (0000ms, 1744319ms total)
T082C 10591:404 JLINK_ReadReg(R8)  returns 0x3F000000 (0000ms, 1744319ms total)
T082C 10591:404 JLINK_ReadReg(R9)  returns 0x00000000 (0000ms, 1744319ms total)
T082C 10591:404 JLINK_ReadReg(R10)  returns 0x00000000 (0000ms, 1744319ms total)
T082C 10591:404 JLINK_ReadReg(R11)  returns 0x0000000C (0001ms, 1744320ms total)
T082C 10591:405 JLINK_ReadReg(R12)  returns 0x200005D8 (0000ms, 1744320ms total)
T082C 10591:405 JLINK_ReadReg(R13 (SP))  returns 0x20000BA8 (0000ms, 1744320ms total)
T082C 10591:405 JLINK_ReadReg(R14)  returns 0x2000032F (0000ms, 1744320ms total)
T082C 10591:405 JLINK_ReadReg(R15 (PC))  returns 0x00000118 (0000ms, 1744320ms total)
T082C 10591:405 JLINK_ReadReg(XPSR)  returns 0x61000000 (0000ms, 1744320ms total)
T082C 10591:405 JLINK_ReadReg(MSP)  returns 0x20000BA8 (0000ms, 1744320ms total)
T082C 10591:405 JLINK_ReadReg(PSP)  returns 0xF3DFFDA4 (0001ms, 1744321ms total)
T082C 10591:406 JLINK_ReadReg(PRIMASK)  returns 0x00000000 (0000ms, 1744321ms total)
T082C 10591:406 JLINK_ReadReg(BASEPRI)  returns 0x00000000 (0000ms, 1744321ms total)
T082C 10591:406 JLINK_ReadReg(FAULTMASK)  returns 0x00000000 (0000ms, 1744321ms total)
T082C 10591:406 JLINK_ReadReg(CONTROL)  returns 0x00000000 (0000ms, 1744321ms total)
T167C 10591:407 JLINK_IsHalted()  returns TRUE (0000ms, 1744321ms total)
T082C 10591:407 JLINK_ReadMemHW(0x00000118, 0x0002 Bytes, ...) -- CPU_ReadMem(2 bytes @ 0x00000118) - Data: F8 B5  returns 0x00 (0001ms, 1744322ms total)
T082C 10591:455 JLINK_ReadReg(R0)  returns 0x00000000 (0000ms, 1744322ms total)
T082C 10591:455 JLINK_ReadReg(R1)  returns 0x00000000 (0000ms, 1744322ms total)
T082C 10591:455 JLINK_ReadReg(R2)  returns 0x00000000 (0000ms, 1744322ms total)
T082C 10591:455 JLINK_ReadReg(R3)  returns 0xECC570B0 (0000ms, 1744322ms total)
T082C 10591:455 JLINK_ReadReg(R4)  returns 0x20000664 (0000ms, 1744322ms total)
T082C 10591:455 JLINK_ReadReg(R5)  returns 0x200006BC (0000ms, 1744322ms total)
T082C 10591:455 JLINK_ReadReg(R6)  returns 0x200006BC (0000ms, 1744322ms total)
T082C 10591:455 JLINK_ReadReg(R7)  returns 0x0000000C (0000ms, 1744322ms total)
T082C 10591:455 JLINK_ReadReg(R8)  returns 0x3F000000 (0000ms, 1744322ms total)
T082C 10591:455 JLINK_ReadReg(R9)  returns 0x00000000 (0001ms, 1744323ms total)
T082C 10591:456 JLINK_ReadReg(R10)  returns 0x00000000 (0000ms, 1744323ms total)
T082C 10591:456 JLINK_ReadReg(R11)  returns 0x0000000C (0000ms, 1744323ms total)
T082C 10591:456 JLINK_ReadReg(R12)  returns 0x200005D8 (0000ms, 1744323ms total)
T082C 10591:456 JLINK_ReadReg(R13 (SP))  returns 0x20000BA8 (0000ms, 1744323ms total)
T082C 10591:456 JLINK_ReadReg(R14)  returns 0x2000032F (0000ms, 1744323ms total)
T082C 10591:456 JLINK_ReadReg(R15 (PC))  returns 0x00000118 (0000ms, 1744323ms total)
T082C 10591:456 JLINK_ReadReg(XPSR)  returns 0x61000000 (0000ms, 1744323ms total)
T082C 10591:456 JLINK_ReadReg(MSP)  returns 0x20000BA8 (0000ms, 1744323ms total)
T082C 10591:456 JLINK_ReadReg(PSP)  returns 0xF3DFFDA4 (0000ms, 1744323ms total)
T082C 10591:456 JLINK_ReadReg(PRIMASK)  returns 0x00000000 (0000ms, 1744323ms total)
T082C 10591:456 JLINK_ReadReg(BASEPRI)  returns 0x00000000 (0000ms, 1744323ms total)
T082C 10591:456 JLINK_ReadReg(FAULTMASK)  returns 0x00000000 (0000ms, 1744323ms total)
T082C 10591:456 JLINK_ReadReg(CONTROL)  returns 0x00000000 (0000ms, 1744323ms total)
T082C 10591:474 JLINK_ReadMemHW(0x00000118, 0x0004 Bytes, ...) -- CPU_ReadMem(4 bytes @ 0x00000118) - Data: F8 B5 23 4A  returns 0x00 (0000ms, 1744323ms total)
T082C 10591:500 JLINK_SetResetType(JLINKARM_CM3_RESET_TYPE_NORMAL)  returns JLINKARM_CM3_RESET_TYPE_NORMAL (0000ms, 1744323ms total)
T082C 10591:500 JLINK_Reset() -- CPU_ReadMem(4 bytes @ 0xE000EDFC) -- CPU_WriteMem(4 bytes @ 0xE000EDFC) -- CPU_WriteMem(4 bytes @ 0xE000ED0C) -- CPU_ReadMem(4 bytes @ 0xE000EDF0) -- CPU_ReadMem(4 bytes @ 0x41002100) -- CPU_WriteMem(4 bytes @ 0xE000EDFC) -- CPU_WriteMem(4 bytes @ 0xE0002000) -- CPU_ReadMem(4 bytes @ 0xE000EDFC) -- CPU_ReadMem(4 bytes @ 0xE0001000) -- CPU_WriteMem(4 bytes @ 0xE0001000) (0010ms, 1744333ms total)
T336C 10591:510 JLINK_EMU_GetList(InterfaceMask = 0x00000001, MaxInfos = 0x00000032) [0]: USB, S/N: 801014840  returns 0x01 (0000ms, 1744333ms total)
T167C 10591:510 JLINK_IsHalted()  returns TRUE (0000ms, 1744333ms total)
T336C 10591:510 JLINK_EMU_GetList(InterfaceMask = 0x00000002, MaxInfos = 0x00000032)   returns 0x00 (0024ms, 1744357ms total)
T167C 10591:534 JLINK_GetMOEs(...) -- CPU_ReadMem(4 bytes @ 0xE000ED30)  returns 0x01 (0000ms, 1744357ms total)
T167C 10591:534 JLINK_ReadReg(R15 (PC))  returns 0x00000118 (0000ms, 1744357ms total)
T082C 10591:542 JLINK_ReadReg(R15 (PC))  returns 0x00000118 (0000ms, 1744357ms total)
T082C 10591:542 JLINK_ReadReg(R13 (SP))  returns 0x20000BA8 (0000ms, 1744357ms total)
T082C 10591:542 JLINK_ReadMemHW(0x00000118, 0x0004 Bytes, ...) -- CPU_ReadMem(4 bytes @ 0x00000118) - Data: F8 B5 23 4A  returns 0x00 (0001ms, 1744358ms total)
T082C 10591:562 JLINK_ReadReg(R0)  returns 0x00000000 (0000ms, 1744358ms total)
T082C 10591:562 JLINK_ReadReg(R1)  returns 0x00000000 (0000ms, 1744358ms total)
T082C 10591:562 JLINK_ReadReg(R2)  returns 0x00000000 (0000ms, 1744358ms total)
T082C 10591:562 JLINK_ReadReg(R3)  returns 0xECC570B0 (0001ms, 1744359ms total)
T082C 10591:563 JLINK_ReadReg(R4)  returns 0x20000664 (0000ms, 1744359ms total)
T082C 10591:563 JLINK_ReadReg(R5)  returns 0x200006BC (0000ms, 1744359ms total)
T082C 10591:563 JLINK_ReadReg(R6)  returns 0x200006BC (0000ms, 1744359ms total)
T082C 10591:563 JLINK_ReadReg(R7)  returns 0x0000000C (0000ms, 1744359ms total)
T082C 10591:563 JLINK_ReadReg(R8)  returns 0x3F000000 (0000ms, 1744359ms total)
T082C 10591:563 JLINK_ReadReg(R9)  returns 0x00000000 (0000ms, 1744359ms total)
T082C 10591:563 JLINK_ReadReg(R10)  returns 0x00000000 (0000ms, 1744359ms total)
T082C 10591:563 JLINK_ReadReg(R11)  returns 0x0000000C (0000ms, 1744359ms total)
T082C 10591:563 JLINK_ReadReg(R12)  returns 0x200005D8 (0000ms, 1744359ms total)
T082C 10591:563 JLINK_ReadReg(R13 (SP))  returns 0x20000BA8 (0000ms, 1744359ms total)
T082C 10591:563 JLINK_ReadReg(R14)  returns 0x2000032F (0000ms, 1744359ms total)
T082C 10591:563 JLINK_ReadReg(R15 (PC))  returns 0x00000118 (0000ms, 1744359ms total)
T082C 10591:563 JLINK_ReadReg(XPSR)  returns 0x61000000 (0000ms, 1744359ms total)
T082C 10591:563 JLINK_ReadReg(MSP)  returns 0x20000BA8 (0000ms, 1744359ms total)
T082C 10591:563 JLINK_ReadReg(PSP)  returns 0xF3DFFDA4 (0000ms, 1744359ms total)
T082C 10591:563 JLINK_ReadReg(PRIMASK)  returns 0x00000000 (0000ms, 1744359ms total)
T082C 10591:564 JLINK_ReadReg(BASEPRI)  returns 0x00000000 (0000ms, 1744360ms total)
T082C 10591:564 JLINK_ReadReg(FAULTMASK)  returns 0x00000000 (0000ms, 1744360ms total)
T082C 10591:564 JLINK_ReadReg(CONTROL)  returns 0x00000000 (0000ms, 1744360ms total)
T082C 10591:564 JLINK_ReadMem (0x2000032E, 0x0004 Bytes, ...) -- CPU_ReadMem(64 bytes @ 0x20000300) -- Updating C cache (64 bytes @ 0x20000300) -- Read from C cache (4 bytes @ 0x2000032E) - Data: 01 BD 70 B5  returns 0x00 (0001ms, 1744361ms total)
T082C 10591:566 JLINK_ReadMem (0x20000058, 0x0002 Bytes, ...) -- CPU_ReadMem(64 bytes @ 0x20000040) -- Updating C cache (64 bytes @ 0x20000040) -- Read from C cache (2 bytes @ 0x20000058) - Data: 2E 07  returns 0x00 (0002ms, 1744363ms total)
T082C 10591:568 JLINK_ReadMem (0x2000005A, 0x0002 Bytes, ...) -- Read from C cache (2 bytes @ 0x2000005A) - Data: B6 0E  returns 0x00 (0000ms, 1744363ms total)
T082C 10591:569 JLINK_ReadMem (0x2000005C, 0x0002 Bytes, ...) -- Read from C cache (2 bytes @ 0x2000005C) - Data: 8E 59  returns 0x00 (0000ms, 1744363ms total)
T082C 10591:569 JLINK_ReadMem (0x2000005E, 0x0002 Bytes, ...) -- Read from C cache (2 bytes @ 0x2000005E) - Data: 2D 09  returns 0x00 (0001ms, 1744364ms total)
T082C 10591:570 JLINK_ReadMem (0x20000060, 0x0002 Bytes, ...) -- Read from C cache (2 bytes @ 0x20000060) - Data: 75 40  returns 0x00 (0000ms, 1744364ms total)
T082C 10591:571 JLINK_ReadMem (0x20000062, 0x0002 Bytes, ...) -- Read from C cache (2 bytes @ 0x20000062) - Data: 92 1C  returns 0x00 (0000ms, 1744364ms total)
T082C 10591:571 JLINK_ReadMem (0x20000064, 0x0002 Bytes, ...) -- Read from C cache (2 bytes @ 0x20000064) - Data: 9B 1E  returns 0x00 (0000ms, 1744364ms total)
T082C 10591:572 JLINK_ReadMem (0x20000066, 0x0002 Bytes, ...) -- Read from C cache (2 bytes @ 0x20000066) - Data: E4 D1  returns 0x00 (0000ms, 1744364ms total)
T082C 10591:572 JLINK_ReadMem (0x2000032E, 0x0004 Bytes, ...) -- Read from C cache (4 bytes @ 0x2000032E) - Data: 01 BD 70 B5  returns 0x00 (0001ms, 1744365ms total)
T082C 10591:573 JLINK_ReadMem (0x20000058, 0x0002 Bytes, ...) -- Read from C cache (2 bytes @ 0x20000058) - Data: 2E 07  returns 0x00 (0000ms, 1744365ms total)
T082C 10591:573 JLINK_ReadMem (0x2000005A, 0x0002 Bytes, ...) -- Read from C cache (2 bytes @ 0x2000005A) - Data: B6 0E  returns 0x00 (0000ms, 1744365ms total)
T082C 10591:574 JLINK_ReadMem (0x2000005C, 0x0002 Bytes, ...) -- Read from C cache (2 bytes @ 0x2000005C) - Data: 8E 59  returns 0x00 (0000ms, 1744365ms total)
T082C 10591:574 JLINK_ReadMem (0x2000005E, 0x0002 Bytes, ...) -- Read from C cache (2 bytes @ 0x2000005E) - Data: 2D 09  returns 0x00 (0000ms, 1744365ms total)
T082C 10591:575 JLINK_ReadMem (0x20000060, 0x0002 Bytes, ...) -- Read from C cache (2 bytes @ 0x20000060) - Data: 75 40  returns 0x00 (0000ms, 1744365ms total)
T082C 10591:575 JLINK_ReadMem (0x20000062, 0x0002 Bytes, ...) -- Read from C cache (2 bytes @ 0x20000062) - Data: 92 1C  returns 0x00 (0000ms, 1744365ms total)
T082C 10591:576 JLINK_ReadMem (0x20000064, 0x0002 Bytes, ...) -- Read from C cache (2 bytes @ 0x20000064) - Data: 9B 1E  returns 0x00 (0000ms, 1744365ms total)
T082C 10591:576 JLINK_ReadMem (0x20000066, 0x0002 Bytes, ...) -- Read from C cache (2 bytes @ 0x20000066) - Data: E4 D1  returns 0x00 (0000ms, 1744365ms total)
T082C 10591:606 JLINK_ReadMemHW(0x00000A70, 0x0001 Bytes, ...) -- CPU_ReadMem(1 bytes @ 0x00000A70) - Data: 70  returns 0x00 (0001ms, 1744366ms total)
T082C 10591:668 JLINK_ReadReg(R15 (PC))  returns 0x00000118 (0001ms, 1744367ms total)
T082C 10591:669 JLINK_GetNumBPUnits(Type = 0xFFFFFF02)  returns 0x04 (0000ms, 1744367ms total)
T082C 10591:669 JLINK_SetBPEx(Addr = 0x00000A70, Type = 0xFFFFFFF2)  returns 0x00000001 (0000ms, 1744367ms total)
T082C 10591:669 JLINK_GetBPInfo(BPHandle = 1)  returns 0x00 (0001ms, 1744368ms total)
T082C 10591:670 JLINK_Go() -- CPU_WriteMem(4 bytes @ 0xE0002000) -- CPU_ReadMem(4 bytes @ 0xE0001000) -- CPU_WriteMem(4 bytes @ 0xE000ED30) -- CPU_WriteMem(4 bytes @ 0xE0001000) -- CPU_WriteMem(4 bytes @ 0xE0002008) -- CPU_WriteMem(4 bytes @ 0xE000200C) -- CPU_WriteMem(4 bytes @ 0xE0002010) -- CPU_WriteMem(4 bytes @ 0xE0002014) -- CPU_WriteMem(4 bytes @ 0xE0001004) (0005ms, 1744373ms total)
T167C 10591:675 JLINK_IsHalted() -- CPU_ReadMem(4 bytes @ 0x41002100)  returns FALSE (0001ms, 1744374ms total)
T167C 10591:697 JLINK_IsHalted()  returns TRUE (0004ms, 1744377ms total)
T167C 10591:701 JLINK_GetMOEs(...) -- CPU_ReadMem(4 bytes @ 0xE000ED30)  returns 0x01 (0000ms, 1744373ms total)
T167C 10591:701 JLINK_ReadReg(R15 (PC))  returns 0x00000A70 (0001ms, 1744374ms total)
T082C 10591:708 JLINK_ReadReg(R15 (PC))  returns 0x00000A70 (0000ms, 1744374ms total)
T082C 10591:708 JLINK_ReadReg(R13 (SP))  returns 0x20000B90 (0000ms, 1744374ms total)
T082C 10591:709 JLINK_ReadMemHW(0x00000A70, 0x0004 Bytes, ...) -- CPU_ReadMem(4 bytes @ 0x00000A70) - Data: 70 B5 50 4B  returns 0x00 (0000ms, 1744374ms total)
T082C 10591:747 JLINK_WriteU32(0xE000EDFC, 0x01000000) -- CPU_WriteMem(4 bytes @ 0xE000EDFC)  returns 0 (0001ms, 1744375ms total)
T082C 10591:748 JLINK_ReadMem (0xE0001000, 0x0004 Bytes, ...) -- CPU_ReadMem(4 bytes @ 0xE0001000) - Data: 00 00 00 20  returns 0x00 (0001ms, 1744376ms total)
T082C 10591:749 JLINK_WriteU32(0xE0001000, 0x20000001)  returns 0 (0000ms, 1744376ms total)
T082C 10591:749 JLINK_WriteU32(0xE0001028, 0x00000100)  returns 0 (0000ms, 1744376ms total)
T082C 10591:749 JLINK_ReadMem (0xE0001028, 0x0004 Bytes, ...) -- CPU_WriteMem(4 bytes @ 0xE0001028) -- CPU_ReadMem(4 bytes @ 0xE0001028) - Data: 00 00 00 00  returns 0x00 (0001ms, 1744377ms total)
T082C 10591:750 JLINK_WriteU32(0xE0001024, 0x0000001F)  returns 0 (0000ms, 1744377ms total)
T082C 10591:750 JLINK_ReadMem (0xE0001024, 0x0004 Bytes, ...) -- CPU_WriteMem(4 bytes @ 0xE0001024) -- CPU_ReadMem(4 bytes @ 0xE0001024) - Data: 1F 00 00 00  returns 0x00 (0001ms, 1744378ms total)
T082C 10591:751 JLINK_WriteU32(0xE0001038, 0x00000100)  returns 0 (0000ms, 1744378ms total)
T082C 10591:751 JLINK_ReadMem (0xE0001038, 0x0004 Bytes, ...) -- CPU_WriteMem(4 bytes @ 0xE0001038) -- CPU_ReadMem(4 bytes @ 0xE0001038) - Data: 00 00 00 00  returns 0x00 (0000ms, 1744378ms total)
T082C 10591:751 JLINK_WriteU32(0xE0001034, 0x0000001F)  returns 0 (0000ms, 1744378ms total)
T082C 10591:751 JLINK_ReadMem (0xE0001034, 0x0004 Bytes, ...) -- CPU_WriteMem(4 bytes @ 0xE0001034) -- CPU_ReadMem(4 bytes @ 0xE0001034) - Data: 1F 00 00 00  returns 0x00 (0001ms, 1744379ms total)
T082C 10591:752 JLINK_WriteU32(0xE0001020, 0x00000000)  returns 0 (0000ms, 1744379ms total)
T082C 10591:752 JLINK_WriteU32(0xE0001024, 0x00000000)  returns 0 (0000ms, 1744379ms total)
T082C 10591:752 JLINK_WriteU32(0xE0001028, 0x00000000)  returns 0 (0001ms, 1744380ms total)
T082C 10591:753 JLINK_WriteU32(0xE0001030, 0x00000000)  returns 0 (0000ms, 1744380ms total)
T082C 10591:753 JLINK_WriteU32(0xE0001034, 0x00000000)  returns 0 (0000ms, 1744380ms total)
T082C 10591:753 JLINK_WriteU32(0xE0001038, 0x00000000)  returns 0 (0000ms, 1744380ms total)
T082C 10591:753 JLINK_GetBPInfo(BPHandle = 1)  returns 0x00 (0000ms, 1744380ms total)
T082C 10591:753 JLINK_ClrBPEx(BPHandle = 0x00000001)  returns 0x00 (0000ms, 1744380ms total)
T082C 10591:753 JLINK_ReadReg(R15 (PC))  returns 0x00000A70 (0000ms, 1744380ms total)
T082C 10591:753 JLINK_Go() -- CPU_WriteMem(4 bytes @ 0xE0001000) -- CPU_ReadMem(4 bytes @ 0xE0001000) -- CPU_WriteMem(4 bytes @ 0xE000ED30) -- CPU_WriteMem(4 bytes @ 0xE0001000) -- CPU_WriteMem(4 bytes @ 0xE0001020) -- CPU_WriteMem(4 bytes @ 0xE0001030) -- CPU_WriteMem(4 bytes @ 0xE0001024) -- CPU_WriteMem(4 bytes @ 0xE0001034) -- CPU_WriteMem(4 bytes @ 0xE0001028) -- CPU_WriteMem(4 bytes @ 0xE0001038) -- CPU_WriteMem(4 bytes @ 0xE0002008) (0003ms, 1744383ms total)
T167C 10591:757 JLINK_IsHalted() -- CPU_ReadMem(4 bytes @ 0x41002100)  returns FALSE (0001ms, 1744385ms total)
T167C 10591:798 JLINK_IsHalted() -- CPU_ReadMem(4 bytes @ 0x41002100)  returns FALSE (0001ms, 1744385ms total)
T167C 10591:960 JLINK_IsHalted() -- CPU_ReadMem(4 bytes @ 0x41002100)  returns FALSE (0001ms, 1744385ms total)
T167C 10592:162 JLINK_IsHalted() -- CPU_ReadMem(4 bytes @ 0x41002100)  returns FALSE (0001ms, 1744385ms total)
T167C 10592:367 JLINK_IsHalted() -- CPU_ReadMem(4 bytes @ 0x41002100)  returns FALSE (0001ms, 1744385ms total)
T167C 10592:568 JLINK_IsHalted() -- CPU_ReadMem(4 bytes @ 0x41002100)  returns FALSE (0001ms, 1744385ms total)
T336C 10592:609 JLINK_EMU_GetList(InterfaceMask = 0x00000001, MaxInfos = 0x00000032) [0]: USB, S/N: 801014840  returns 0x01 (0000ms, 1744384ms total)
T336C 10592:609 JLINK_EMU_GetList(InterfaceMask = 0x00000002, MaxInfos = 0x00000032)   returns 0x00 (0024ms, 1744408ms total)
T167C 10592:769 JLINK_IsHalted() -- CPU_ReadMem(4 bytes @ 0x41002100)  returns FALSE (0001ms, 1744409ms total)
T167C 10592:974 JLINK_IsHalted() -- CPU_ReadMem(4 bytes @ 0x41002100)  returns FALSE (0001ms, 1744409ms total)
T167C 10593:175 JLINK_IsHalted() -- CPU_ReadMem(4 bytes @ 0x41002100)  returns FALSE (0001ms, 1744409ms total)
T167C 10593:377 JLINK_IsHalted() -- CPU_ReadMem(4 bytes @ 0x41002100)  returns FALSE (0001ms, 1744409ms total)
T167C 10593:581 JLINK_IsHalted() -- CPU_ReadMem(4 bytes @ 0x41002100)  returns FALSE (0001ms, 1744409ms total)
T336C 10593:689 JLINK_EMU_GetList(InterfaceMask = 0x00000001, MaxInfos = 0x00000032) [0]: USB, S/N: 801014840  returns 0x01 (0001ms, 1744409ms total)
T336C 10593:690 JLINK_EMU_GetList(InterfaceMask = 0x00000002, MaxInfos = 0x00000032)   returns 0x00 (0024ms, 1744433ms total)
T167C 10593:785 JLINK_IsHalted() -- CPU_ReadMem(4 bytes @ 0x41002100)  returns FALSE (0001ms, 1744434ms total)
T167C 10593:986 JLINK_IsHalted() -- CPU_ReadMem(4 bytes @ 0x41002100)  returns FALSE (0002ms, 1744435ms total)
T167C 10594:189 JLINK_IsHalted() -- CPU_ReadMem(4 bytes @ 0x41002100)  returns FALSE (0001ms, 1744434ms total)
T167C 10594:391 JLINK_IsHalted() -- CPU_ReadMem(4 bytes @ 0x41002100)  returns FALSE (0001ms, 1744434ms total)
T167C 10594:596 JLINK_IsHalted() -- CPU_ReadMem(4 bytes @ 0x41002100)  returns FALSE (0001ms, 1744434ms total)
T336C 10594:770 JLINK_EMU_GetList(InterfaceMask = 0x00000001, MaxInfos = 0x00000032) [0]: USB, S/N: 801014840  returns 0x01 (0000ms, 1744433ms total)
T336C 10594:770 JLINK_EMU_GetList(InterfaceMask = 0x00000002, MaxInfos = 0x00000032)   returns 0x00 (0023ms, 1744456ms total)
T167C 10594:799 JLINK_IsHalted() -- CPU_ReadMem(4 bytes @ 0x41002100)  returns FALSE (0001ms, 1744457ms total)
T167C 10595:001 JLINK_IsHalted() -- CPU_ReadMem(4 bytes @ 0x41002100)  returns FALSE (0001ms, 1744457ms total)
T167C 10595:203 JLINK_IsHalted() -- CPU_ReadMem(4 bytes @ 0x41002100)  returns FALSE (0001ms, 1744457ms total)
T082C 10595:301 JLINK_Halt()  returns 0x00 (0003ms, 1744459ms total)
T167C 10595:406 JLINK_IsHalted()  returns TRUE (0000ms, 1744459ms total)
T167C 10595:406 JLINK_GetMOEs(...) -- CPU_ReadMem(4 bytes @ 0xE000ED30)  returns 0x01 (0001ms, 1744460ms total)
T167C 10595:407 JLINK_ReadReg(R15 (PC))  returns 0x00000FF0 (0000ms, 1744460ms total)
T1538 10595:408 JLINK_ResetPullsRESET(ON) (0000ms, 1744460ms total)
T1538 10595:408 JLINK_ResetNoHalt()InitTarget() >0x10B TIF>Found SW-DP with ID 0x0BC11477 >0x0D TIF> >0x28 TIF> >0x0D TIF> >0x28 TIF> >0x0D TIF> >0x28 TIF> >0x0D TIF> >0x28 TIF> >0x0D TIF> >0x21 TIF> >0x0D TIF> >0x28 TIF>AP map detection skipped. Manually configured AP map found.AP[0]: AHB-AP (IDR: Not set) >0x42 TIF> >0x28 TIF> >0x0D TIF> >0x28 TIF> >0x0D TIF> >0x21 TIF> >0x0D TIF> >0x21 TIF> >0x42 TIF> >0x28 TIF> >0x0D TIF> >0x28 TIF> >0x0D TIF> >0x28 TIF> >0x0D TIF> >0x21 TIF> >0x0D TIF> >0x21 TIF>
AP[0]: Core foundAP[0]: AHB-AP ROM base: 0x41003000 >0x0D TIF> >0x28 TIF> >0x0D TIF> >0x28 TIF> >0x0D TIF> >0x28 TIF> >0x0D TIF> >0x21 TIF> >0x0D TIF> >0x21 TIF>CPUID register: 0x410CC601. Implementer code: 0x41 (ARM)Found Cortex-M0 r0p1, Little endian. -- Max. mem block: 0x000010B8 -- CPU_ReadMem(4 bytes @ 0xE000EDF0) -- CPU_ReadMem(4 bytes @ 0xE0002000)FPUnit: 4 code (BP) slots and 0 literal slots -- CPU_ReadMem(4 bytes @ 0xE0001000)CoreSight components:ROMTbl[0] @ 41003000
 -- CPU_ReadMem(16 bytes @ 0x41003000) -- CPU_ReadMem(16 bytes @ 0xE00FFFF0) -- CPU_ReadMem(16 bytes @ 0xE00FFFE0)ROMTbl[0][0]: E00FF000, CID: B105100D, PID: 000BB4C0 ROM TableROMTbl[1] @ E00FF000 -- CPU_ReadMem(16 bytes @ 0xE00FF000) -- CPU_ReadMem(16 bytes @ 0xE000EFF0) -- CPU_ReadMem(16 bytes @ 0xE000EFE0)ROMTbl[1][0]: E000E000, CID: B105E00D, PID: 000BB008 SCS -- CPU_WriteMem(4 bytes @ 0xE0001000) -- CPU_ReadMem(16 bytes @ 0xE0001FF0) -- CPU_ReadMem(16 bytes @ 0xE0001FE0)
ROMTbl[1][1]: E0001000, CID: B105E00D, PID: 000BB00A DWT -- CPU_ReadMem(16 bytes @ 0xE0002FF0) -- CPU_ReadMem(16 bytes @ 0xE0002FE0)ROMTbl[1][2]: E0002000, CID: B105E00D, PID: 000BB00B FPB -- CPU_ReadMem(16 bytes @ 0x41006FF0) -- CPU_ReadMem(16 bytes @ 0x41006FE0)ROMTbl[0][1]: 41006000, CID: B105900D, PID: 001BB932 MTB-M0+
                JLINK_Reset() -- CPU_ReadMem(4 bytes @ 0xE000EDFC) -- CPU_WriteMem(4 bytes @ 0xE000EDFC) -- CPU_WriteMem(4 bytes @ 0xE000ED0C) -- CPU_ReadMem(4 bytes @ 0xE000EDF0) -- CPU_ReadMem(4 bytes @ 0x41002100) -- CPU_WriteMem(4 bytes @ 0xE000EDFC) -- CPU_WriteMem(4 bytes @ 0xE0002000) -- CPU_ReadMem(4 bytes @ 0xE000EDFC) -- CPU_ReadMem(4 bytes @ 0xE0001000) -- CPU_WriteMem(4 bytes @ 0xE0001000) (0011ms, 0011ms total)
                JLINK_Go() -- CPU_ReadMem(4 bytes @ 0xE0001000) -- CPU_WriteMem(4 bytes @ 0xE0001000) -- CPU_WriteMem(4 bytes @ 0xE0002008) -- CPU_WriteMem(4 bytes @ 0xE000200C) -- CPU_WriteMem(4 bytes @ 0xE0002010) -- CPU_WriteMem(4 bytes @ 0xE0002014) -- CPU_WriteMem(4 bytes @ 0xE0001004) (0003ms, 0014ms total)
               (0139ms, 1744599ms total)
T1538 10595:569 JLINK_Close() -- CPU is running -- CPU_WriteMem(4 bytes @ 0xE0002008) -- CPU is running -- CPU_WriteMem(4 bytes @ 0xE000200C) -- CPU is running -- CPU_WriteMem(4 bytes @ 0xE0002010) -- CPU is running -- CPU_WriteMem(4 bytes @ 0xE0002014) >0x0D TIF> >0x28 TIF> >0x0D TIF> >0x28 TIF> >0x0D TIF> >0x28 TIF> >0x0D TIF> >0x28 TIF> >0x0D TIF> >0x28 TIF> >0x0D TIF> >0x28 TIF> >0x0D TIF> >0x28 TIF> >0x0D TIF> >0x28 TIF> >0x0D TIF> >0x21 TIF> >0x0D TIF> >0x28 TIF> (0016ms, 1744615ms total)
T1538 10595:569  (0016ms, 1744615ms total)
T1538 10595:569 Closed (0016ms, 1744615ms total)
